<Qucs Dataset 0.0.15>
<indep VpH 100>
  -4.00000000000e-01
  -3.91919191919e-01
  -3.83838383838e-01
  -3.75757575758e-01
  -3.67676767677e-01
  -3.59595959596e-01
  -3.51515151515e-01
  -3.43434343434e-01
  -3.35353535354e-01
  -3.27272727273e-01
  -3.19191919192e-01
  -3.11111111111e-01
  -3.03030303030e-01
  -2.94949494949e-01
  -2.86868686869e-01
  -2.78787878788e-01
  -2.70707070707e-01
  -2.62626262626e-01
  -2.54545454545e-01
  -2.46464646465e-01
  -2.38383838384e-01
  -2.30303030303e-01
  -2.22222222222e-01
  -2.14141414141e-01
  -2.06060606061e-01
  -1.97979797980e-01
  -1.89898989899e-01
  -1.81818181818e-01
  -1.73737373737e-01
  -1.65656565657e-01
  -1.57575757576e-01
  -1.49494949495e-01
  -1.41414141414e-01
  -1.33333333333e-01
  -1.25252525253e-01
  -1.17171717172e-01
  -1.09090909091e-01
  -1.01010101010e-01
  -9.29292929293e-02
  -8.48484848485e-02
  -7.67676767677e-02
  -6.86868686869e-02
  -6.06060606061e-02
  -5.25252525253e-02
  -4.44444444444e-02
  -3.63636363636e-02
  -2.82828282828e-02
  -2.02020202020e-02
  -1.21212121212e-02
  -4.04040404040e-03
  +4.04040404040e-03
  +1.21212121212e-02
  +2.02020202020e-02
  +2.82828282828e-02
  +3.63636363636e-02
  +4.44444444444e-02
  +5.25252525253e-02
  +6.06060606061e-02
  +6.86868686869e-02
  +7.67676767677e-02
  +8.48484848485e-02
  +9.29292929293e-02
  +1.01010101010e-01
  +1.09090909091e-01
  +1.17171717172e-01
  +1.25252525253e-01
  +1.33333333333e-01
  +1.41414141414e-01
  +1.49494949495e-01
  +1.57575757576e-01
  +1.65656565657e-01
  +1.73737373737e-01
  +1.81818181818e-01
  +1.89898989899e-01
  +1.97979797980e-01
  +2.06060606061e-01
  +2.14141414141e-01
  +2.22222222222e-01
  +2.30303030303e-01
  +2.38383838384e-01
  +2.46464646465e-01
  +2.54545454545e-01
  +2.62626262626e-01
  +2.70707070707e-01
  +2.78787878788e-01
  +2.86868686869e-01
  +2.94949494949e-01
  +3.03030303030e-01
  +3.11111111111e-01
  +3.19191919192e-01
  +3.27272727273e-01
  +3.35353535354e-01
  +3.43434343434e-01
  +3.51515151515e-01
  +3.59595959596e-01
  +3.67676767677e-01
  +3.75757575758e-01
  +3.83838383838e-01
  +3.91919191919e-01
  +4.00000000000e-01
</indep>
<dep V1.I VpH>
  +0.00000000000e+00
  +0.00000000000e+00
  +0.00000000000e+00
  +0.00000000000e+00
  +0.00000000000e+00
  +0.00000000000e+00
  +0.00000000000e+00
  +0.00000000000e+00
  +0.00000000000e+00
  +0.00000000000e+00
  +0.00000000000e+00
  +0.00000000000e+00
  +0.00000000000e+00
  +0.00000000000e+00
  +0.00000000000e+00
  +0.00000000000e+00
  +0.00000000000e+00
  +0.00000000000e+00
  +0.00000000000e+00
  +0.00000000000e+00
  +0.00000000000e+00
  +0.00000000000e+00
  +0.00000000000e+00
  +0.00000000000e+00
  +0.00000000000e+00
  +0.00000000000e+00
  +0.00000000000e+00
  +0.00000000000e+00
  +0.00000000000e+00
  +0.00000000000e+00
  +0.00000000000e+00
  +0.00000000000e+00
  +0.00000000000e+00
  +0.00000000000e+00
  +0.00000000000e+00
  +0.00000000000e+00
  +0.00000000000e+00
  +0.00000000000e+00
  +0.00000000000e+00
  +0.00000000000e+00
  +0.00000000000e+00
  +0.00000000000e+00
  +0.00000000000e+00
  +0.00000000000e+00
  +0.00000000000e+00
  +0.00000000000e+00
  +0.00000000000e+00
  +0.00000000000e+00
  +0.00000000000e+00
  +0.00000000000e+00
  +0.00000000000e+00
  +0.00000000000e+00
  +0.00000000000e+00
  +0.00000000000e+00
  +0.00000000000e+00
  +0.00000000000e+00
  +0.00000000000e+00
  +0.00000000000e+00
  +0.00000000000e+00
  +0.00000000000e+00
  +0.00000000000e+00
  +0.00000000000e+00
  +0.00000000000e+00
  +0.00000000000e+00
  +0.00000000000e+00
  +0.00000000000e+00
  +0.00000000000e+00
  +0.00000000000e+00
  +0.00000000000e+00
  +0.00000000000e+00
  +0.00000000000e+00
  +0.00000000000e+00
  +0.00000000000e+00
  +0.00000000000e+00
  +0.00000000000e+00
  +0.00000000000e+00
  +0.00000000000e+00
  +0.00000000000e+00
  +0.00000000000e+00
  +0.00000000000e+00
  +0.00000000000e+00
  +0.00000000000e+00
  +0.00000000000e+00
  +0.00000000000e+00
  +0.00000000000e+00
  +0.00000000000e+00
  +0.00000000000e+00
  +0.00000000000e+00
  +0.00000000000e+00
  +0.00000000000e+00
  +0.00000000000e+00
  +0.00000000000e+00
  +0.00000000000e+00
  +0.00000000000e+00
  +0.00000000000e+00
  +0.00000000000e+00
  +0.00000000000e+00
  +0.00000000000e+00
  +0.00000000000e+00
  +0.00000000000e+00
</dep>
<dep V2.I VpH>
  -3.75939849624e-05
  -3.75939849624e-05
  -3.75939849624e-05
  -3.75939849624e-05
  -3.75939849624e-05
  -3.75939849624e-05
  -3.75939849624e-05
  -3.75939849624e-05
  -3.75939849624e-05
  -3.75939849624e-05
  -3.75939849624e-05
  -3.75939849624e-05
  -3.75939849624e-05
  -3.75939849624e-05
  -3.75939849624e-05
  -3.75939849624e-05
  -3.75939849624e-05
  -3.75939849624e-05
  -3.75939849624e-05
  -3.75939849624e-05
  -3.75939849624e-05
  -3.75939849624e-05
  -3.75939849624e-05
  -3.75939849624e-05
  -3.75939849624e-05
  -3.75939849624e-05
  -3.75939849624e-05
  -3.75939849624e-05
  -3.75939849624e-05
  -3.75939849624e-05
  -3.75939849624e-05
  -3.75939849624e-05
  -3.75939849624e-05
  -3.75939849624e-05
  -3.75939849624e-05
  -3.75939849624e-05
  -3.75939849624e-05
  -3.75939849624e-05
  -3.75939849624e-05
  -3.75939849624e-05
  -3.75939849624e-05
  -3.75939849624e-05
  -3.75939849624e-05
  -3.75939849624e-05
  -3.75939849624e-05
  -3.75939849624e-05
  -3.75939849624e-05
  -3.75939849624e-05
  -3.75939849624e-05
  -3.75939849624e-05
  -3.75939849624e-05
  -3.75939849624e-05
  -3.75939849624e-05
  -3.75939849624e-05
  -3.75939849624e-05
  -3.75939849624e-05
  -3.75939849624e-05
  -3.75939849624e-05
  -3.75939849624e-05
  -3.75939849624e-05
  -3.75939849624e-05
  -3.75939849624e-05
  -3.75939849624e-05
  -3.75939849624e-05
  -3.75939849624e-05
  -3.75939849624e-05
  -3.75939849624e-05
  -3.75939849624e-05
  -3.75939849624e-05
  -3.75939849624e-05
  -3.75939849624e-05
  -3.75939849624e-05
  -3.75939849624e-05
  -3.75939849624e-05
  -3.75939849624e-05
  -3.75939849624e-05
  -3.75939849624e-05
  -3.75939849624e-05
  -3.75939849624e-05
  -3.75939849624e-05
  -3.75939849624e-05
  -3.75939849624e-05
  -3.75939849624e-05
  -3.75939849624e-05
  -3.75939849624e-05
  -3.75939849624e-05
  -3.75939849624e-05
  -3.75939849624e-05
  -3.75939849624e-05
  -3.75939849624e-05
  -3.75939849624e-05
  -3.75939849624e-05
  -3.75939849624e-05
  -3.75939849624e-05
  -3.75939849624e-05
  -3.75939849624e-05
  -3.75939849624e-05
  -3.75939849624e-05
  -3.75939849624e-05
  -3.75939849624e-05
</dep>
<dep _net2.V VpH>
  +1.24060150376e+00
  +1.24060150376e+00
  +1.24060150376e+00
  +1.24060150376e+00
  +1.24060150376e+00
  +1.24060150376e+00
  +1.24060150376e+00
  +1.24060150376e+00
  +1.24060150376e+00
  +1.24060150376e+00
  +1.24060150376e+00
  +1.24060150376e+00
  +1.24060150376e+00
  +1.24060150376e+00
  +1.24060150376e+00
  +1.24060150376e+00
  +1.24060150376e+00
  +1.24060150376e+00
  +1.24060150376e+00
  +1.24060150376e+00
  +1.24060150376e+00
  +1.24060150376e+00
  +1.24060150376e+00
  +1.24060150376e+00
  +1.24060150376e+00
  +1.24060150376e+00
  +1.24060150376e+00
  +1.24060150376e+00
  +1.24060150376e+00
  +1.24060150376e+00
  +1.24060150376e+00
  +1.24060150376e+00
  +1.24060150376e+00
  +1.24060150376e+00
  +1.24060150376e+00
  +1.24060150376e+00
  +1.24060150376e+00
  +1.24060150376e+00
  +1.24060150376e+00
  +1.24060150376e+00
  +1.24060150376e+00
  +1.24060150376e+00
  +1.24060150376e+00
  +1.24060150376e+00
  +1.24060150376e+00
  +1.24060150376e+00
  +1.24060150376e+00
  +1.24060150376e+00
  +1.24060150376e+00
  +1.24060150376e+00
  +1.24060150376e+00
  +1.24060150376e+00
  +1.24060150376e+00
  +1.24060150376e+00
  +1.24060150376e+00
  +1.24060150376e+00
  +1.24060150376e+00
  +1.24060150376e+00
  +1.24060150376e+00
  +1.24060150376e+00
  +1.24060150376e+00
  +1.24060150376e+00
  +1.24060150376e+00
  +1.24060150376e+00
  +1.24060150376e+00
  +1.24060150376e+00
  +1.24060150376e+00
  +1.24060150376e+00
  +1.24060150376e+00
  +1.24060150376e+00
  +1.24060150376e+00
  +1.24060150376e+00
  +1.24060150376e+00
  +1.24060150376e+00
  +1.24060150376e+00
  +1.24060150376e+00
  +1.24060150376e+00
  +1.24060150376e+00
  +1.24060150376e+00
  +1.24060150376e+00
  +1.24060150376e+00
  +1.24060150376e+00
  +1.24060150376e+00
  +1.24060150376e+00
  +1.24060150376e+00
  +1.24060150376e+00
  +1.24060150376e+00
  +1.24060150376e+00
  +1.24060150376e+00
  +1.24060150376e+00
  +1.24060150376e+00
  +1.24060150376e+00
  +1.24060150376e+00
  +1.24060150376e+00
  +1.24060150376e+00
  +1.24060150376e+00
  +1.24060150376e+00
  +1.24060150376e+00
  +1.24060150376e+00
  +1.24060150376e+00
</dep>
<dep _net3.V VpH>
  +5.00000000000e+00
  +5.00000000000e+00
  +5.00000000000e+00
  +5.00000000000e+00
  +5.00000000000e+00
  +5.00000000000e+00
  +5.00000000000e+00
  +5.00000000000e+00
  +5.00000000000e+00
  +5.00000000000e+00
  +5.00000000000e+00
  +5.00000000000e+00
  +5.00000000000e+00
  +5.00000000000e+00
  +5.00000000000e+00
  +5.00000000000e+00
  +5.00000000000e+00
  +5.00000000000e+00
  +5.00000000000e+00
  +5.00000000000e+00
  +5.00000000000e+00
  +5.00000000000e+00
  +5.00000000000e+00
  +5.00000000000e+00
  +5.00000000000e+00
  +5.00000000000e+00
  +5.00000000000e+00
  +5.00000000000e+00
  +5.00000000000e+00
  +5.00000000000e+00
  +5.00000000000e+00
  +5.00000000000e+00
  +5.00000000000e+00
  +5.00000000000e+00
  +5.00000000000e+00
  +5.00000000000e+00
  +5.00000000000e+00
  +5.00000000000e+00
  +5.00000000000e+00
  +5.00000000000e+00
  +5.00000000000e+00
  +5.00000000000e+00
  +5.00000000000e+00
  +5.00000000000e+00
  +5.00000000000e+00
  +5.00000000000e+00
  +5.00000000000e+00
  +5.00000000000e+00
  +5.00000000000e+00
  +5.00000000000e+00
  +5.00000000000e+00
  +5.00000000000e+00
  +5.00000000000e+00
  +5.00000000000e+00
  +5.00000000000e+00
  +5.00000000000e+00
  +5.00000000000e+00
  +5.00000000000e+00
  +5.00000000000e+00
  +5.00000000000e+00
  +5.00000000000e+00
  +5.00000000000e+00
  +5.00000000000e+00
  +5.00000000000e+00
  +5.00000000000e+00
  +5.00000000000e+00
  +5.00000000000e+00
  +5.00000000000e+00
  +5.00000000000e+00
  +5.00000000000e+00
  +5.00000000000e+00
  +5.00000000000e+00
  +5.00000000000e+00
  +5.00000000000e+00
  +5.00000000000e+00
  +5.00000000000e+00
  +5.00000000000e+00
  +5.00000000000e+00
  +5.00000000000e+00
  +5.00000000000e+00
  +5.00000000000e+00
  +5.00000000000e+00
  +5.00000000000e+00
  +5.00000000000e+00
  +5.00000000000e+00
  +5.00000000000e+00
  +5.00000000000e+00
  +5.00000000000e+00
  +5.00000000000e+00
  +5.00000000000e+00
  +5.00000000000e+00
  +5.00000000000e+00
  +5.00000000000e+00
  +5.00000000000e+00
  +5.00000000000e+00
  +5.00000000000e+00
  +5.00000000000e+00
  +5.00000000000e+00
  +5.00000000000e+00
  +5.00000000000e+00
</dep>
<dep Vout.V VpH>
  -2.21816704490e+00
  -2.17335570867e+00
  -2.12854436298e+00
  -2.08373300830e+00
  -2.03892164509e+00
  -1.99411027377e+00
  -1.94929889473e+00
  -1.90448750835e+00
  -1.85967611498e+00
  -1.81486471495e+00
  -1.77005330860e+00
  -1.72524189622e+00
  -1.68043047809e+00
  -1.63561905450e+00
  -1.59080762570e+00
  -1.54599619194e+00
  -1.50118475346e+00
  -1.45637331048e+00
  -1.41156186321e+00
  -1.36675041188e+00
  -1.32193895666e+00
  -1.27712749777e+00
  -1.23231603537e+00
  -1.18750456964e+00
  -1.14269310075e+00
  -1.09788162887e+00
  -1.05307015415e+00
  -1.00825867674e+00
  -9.63447196791e-01
  -9.18635714444e-01
  -8.73824229837e-01
  -8.29012743103e-01
  -7.84201254371e-01
  -7.39389763769e-01
  -6.94578271418e-01
  -6.49766777440e-01
  -6.04955281951e-01
  -5.60143785065e-01
  -5.15332286897e-01
  -4.70520787554e-01
  -4.25709287147e-01
  -3.80897785781e-01
  -3.36086283562e-01
  -2.91274780593e-01
  -2.46463276976e-01
  -2.01651772813e-01
  -1.56840268204e-01
  -1.12028763250e-01
  -6.72172580483e-02
  -2.24057526992e-02
  +2.24057526992e-02
  +6.72172580483e-02
  +1.12028763250e-01
  +1.56840268204e-01
  +2.01651772813e-01
  +2.46463276976e-01
  +2.91274780593e-01
  +3.36086283562e-01
  +3.80897785781e-01
  +4.25709287147e-01
  +4.70520787554e-01
  +5.15332286897e-01
  +5.60143785065e-01
  +6.04955281951e-01
  +6.49766777440e-01
  +6.94578271418e-01
  +7.39389763769e-01
  +7.84201254371e-01
  +8.29012743103e-01
  +8.73824229837e-01
  +9.18635714444e-01
  +9.63447196791e-01
  +1.00825867674e+00
  +1.05307015415e+00
  +1.09788162887e+00
  +1.14269310075e+00
  +1.18750456964e+00
  +1.23231603537e+00
  +1.27712749777e+00
  +1.32193895666e+00
  +1.36675041188e+00
  +1.41156186321e+00
  +1.45637331048e+00
  +1.50118475346e+00
  +1.54599619194e+00
  +1.59080762570e+00
  +1.63561905450e+00
  +1.68043047809e+00
  +1.72524189622e+00
  +1.77005330860e+00
  +1.81486471495e+00
  +1.85967611498e+00
  +1.90448750835e+00
  +1.94929889473e+00
  +1.99411027377e+00
  +2.03892164509e+00
  +2.08373300830e+00
  +2.12854436298e+00
  +2.17335570867e+00
  +2.21816704490e+00
</dep>
<dep vint2.V VpH>
  +1.24056790862e+00
  +1.24057229303e+00
  +1.24057567446e+00
  +1.24057836265e+00
  +1.24058055176e+00
  +1.24058236960e+00
  +1.24058390380e+00
  +1.24058521642e+00
  +1.24058635264e+00
  +1.24058734616e+00
  +1.24058822260e+00
  +1.24058900178e+00
  +1.24058969932e+00
  +1.24059032763e+00
  +1.24059089676e+00
  +1.24059141488e+00
  +1.24059188873e+00
  +1.24059232393e+00
  +1.24059272517e+00
  +1.24059309642e+00
  +1.24059344105e+00
  +1.24059376194e+00
  +1.24059406159e+00
  +1.24059434213e+00
  +1.24059460546e+00
  +1.24059485319e+00
  +1.24059508676e+00
  +1.24059530744e+00
  +1.24059551634e+00
  +1.24059571447e+00
  +1.24059590270e+00
  +1.24059608184e+00
  +1.24059625258e+00
  +1.24059641557e+00
  +1.24059657139e+00
  +1.24059672055e+00
  +1.24059686353e+00
  +1.24059700077e+00
  +1.24059713264e+00
  +1.24059725951e+00
  +1.24059738170e+00
  +1.24059749952e+00
  +1.24059761324e+00
  +1.24059772311e+00
  +1.24059782937e+00
  +1.24059793222e+00
  +1.24059803188e+00
  +1.24059812853e+00
  +1.24059822233e+00
  +1.24059831345e+00
  +1.24059840203e+00
  +1.24059848821e+00
  +1.24059857213e+00
  +1.24059865390e+00
  +1.24059873363e+00
  +1.24059881143e+00
  +1.24059888740e+00
  +1.24059896163e+00
  +1.24059903421e+00
  +1.24059910523e+00
  +1.24059917475e+00
  +1.24059924285e+00
  +1.24059930961e+00
  +1.24059937508e+00
  +1.24059943933e+00
  +1.24059950242e+00
  +1.24059956440e+00
  +1.24059962533e+00
  +1.24059968525e+00
  +1.24059974422e+00
  +1.24059980228e+00
  +1.24059985946e+00
  +1.24059991583e+00
  +1.24059997140e+00
  +1.24060002623e+00
  +1.24060008035e+00
  +1.24060013379e+00
  +1.24060018658e+00
  +1.24060023877e+00
  +1.24060029037e+00
  +1.24060034142e+00
  +1.24060039195e+00
  +1.24060044199e+00
  +1.24060049156e+00
  +1.24060054068e+00
  +1.24060058939e+00
  +1.24060063771e+00
  +1.24060068566e+00
  +1.24060073326e+00
  +1.24060078054e+00
  +1.24060082752e+00
  +1.24060087421e+00
  +1.24060092065e+00
  +1.24060096685e+00
  +1.24060101283e+00
  +1.24060105861e+00
  +1.24060110421e+00
  +1.24060114965e+00
  +1.24060119495e+00
  +1.24060124012e+00
</dep>
<dep Vout2.V VpH>
  +4.69930286215e+00
  +4.65450029473e+00
  +4.60969571189e+00
  +4.56488973361e+00
  +4.52008274861e+00
  +4.47527501297e+00
  +4.43046670233e+00
  +4.38565794118e+00
  +4.34084882026e+00
  +4.29603940728e+00
  +4.25122975379e+00
  +4.20641989978e+00
  +4.16160987673e+00
  +4.11679970976e+00
  +4.07198941921e+00
  +4.02717902169e+00
  +3.98236853093e+00
  +3.93755795834e+00
  +3.89274731356e+00
  +3.84793660471e+00
  +3.80312583876e+00
  +3.75831502165e+00
  +3.71350415854e+00
  +3.66869325391e+00
  +3.62388231166e+00
  +3.57907133524e+00
  +3.53426032766e+00
  +3.48944929161e+00
  +3.44463822947e+00
  +3.39982714338e+00
  +3.35501603524e+00
  +3.31020490677e+00
  +3.26539375953e+00
  +3.22058259491e+00
  +3.17577141419e+00
  +3.13096021854e+00
  +3.08614900902e+00
  +3.04133778660e+00
  +2.99652655217e+00
  +2.95171530657e+00
  +2.90690405055e+00
  +2.86209278482e+00
  +2.81728151004e+00
  +2.77247022681e+00
  +2.72765893571e+00
  +2.68284763726e+00
  +2.63803633197e+00
  +2.59322502031e+00
  +2.54841370271e+00
  +2.50360237959e+00
  +2.45879105136e+00
  +2.41397971838e+00
  +2.36916838101e+00
  +2.32435703959e+00
  +2.27954569444e+00
  +2.23473434588e+00
  +2.18992299421e+00
  +2.14511163970e+00
  +2.10030028265e+00
  +2.05548892331e+00
  +2.01067756194e+00
  +1.96586619881e+00
  +1.92105483415e+00
  +1.87624346821e+00
  +1.83143210123e+00
  +1.78662073342e+00
  +1.74180936504e+00
  +1.69699799629e+00
  +1.65218662740e+00
  +1.60737525860e+00
  +1.56256389011e+00
  +1.51775252214e+00
  +1.47294115492e+00
  +1.42812978866e+00
  +1.38331842360e+00
  +1.33850705995e+00
  +1.29369569794e+00
  +1.24888433780e+00
  +1.20407297977e+00
  +1.15926162408e+00
  +1.11445027097e+00
  +1.06963892069e+00
  +1.02482757350e+00
  +9.80016229657e-01
  +9.35204889425e-01
  +8.90393553083e-01
  +8.45582220915e-01
  +8.00770893219e-01
  +7.55959570299e-01
  +7.11148252475e-01
  +6.66336940076e-01
  +6.21525633450e-01
  +5.76714332955e-01
  +5.31903038970e-01
  +4.87091751889e-01
  +4.42280472127e-01
  +3.97469200120e-01
  +3.52657936327e-01
  +3.07846681231e-01
  +2.63035435345e-01
</dep>
<dep Vint.V VpH>
  +1.24056790862e+00
  +1.24057229303e+00
  +1.24057567446e+00
  +1.24057836265e+00
  +1.24058055176e+00
  +1.24058236960e+00
  +1.24058390380e+00
  +1.24058521642e+00
  +1.24058635264e+00
  +1.24058734616e+00
  +1.24058822260e+00
  +1.24058900178e+00
  +1.24058969932e+00
  +1.24059032763e+00
  +1.24059089676e+00
  +1.24059141488e+00
  +1.24059188873e+00
  +1.24059232393e+00
  +1.24059272517e+00
  +1.24059309642e+00
  +1.24059344105e+00
  +1.24059376194e+00
  +1.24059406159e+00
  +1.24059434213e+00
  +1.24059460546e+00
  +1.24059485319e+00
  +1.24059508676e+00
  +1.24059530744e+00
  +1.24059551634e+00
  +1.24059571447e+00
  +1.24059590270e+00
  +1.24059608184e+00
  +1.24059625258e+00
  +1.24059641557e+00
  +1.24059657139e+00
  +1.24059672055e+00
  +1.24059686353e+00
  +1.24059700077e+00
  +1.24059713264e+00
  +1.24059725951e+00
  +1.24059738170e+00
  +1.24059749952e+00
  +1.24059761324e+00
  +1.24059772311e+00
  +1.24059782937e+00
  +1.24059793222e+00
  +1.24059803188e+00
  +1.24059812853e+00
  +1.24059822233e+00
  +1.24059831345e+00
  +1.24059840203e+00
  +1.24059848821e+00
  +1.24059857213e+00
  +1.24059865390e+00
  +1.24059873363e+00
  +1.24059881143e+00
  +1.24059888740e+00
  +1.24059896163e+00
  +1.24059903421e+00
  +1.24059910523e+00
  +1.24059917475e+00
  +1.24059924285e+00
  +1.24059930961e+00
  +1.24059937508e+00
  +1.24059943933e+00
  +1.24059950242e+00
  +1.24059956440e+00
  +1.24059962533e+00
  +1.24059968525e+00
  +1.24059974422e+00
  +1.24059980228e+00
  +1.24059985946e+00
  +1.24059991583e+00
  +1.24059997140e+00
  +1.24060002623e+00
  +1.24060008035e+00
  +1.24060013379e+00
  +1.24060018658e+00
  +1.24060023877e+00
  +1.24060029037e+00
  +1.24060034142e+00
  +1.24060039195e+00
  +1.24060044199e+00
  +1.24060049156e+00
  +1.24060054068e+00
  +1.24060058939e+00
  +1.24060063771e+00
  +1.24060068566e+00
  +1.24060073326e+00
  +1.24060078054e+00
  +1.24060082752e+00
  +1.24060087421e+00
  +1.24060092065e+00
  +1.24060096685e+00
  +1.24060101283e+00
  +1.24060105861e+00
  +1.24060110421e+00
  +1.24060114965e+00
  +1.24060119495e+00
  +1.24060124012e+00
</dep>
<dep _net0.V VpH>
  -3.99997335966e-01
  -3.91916603202e-01
  -3.83835868733e-01
  -3.75755132645e-01
  -3.67674395017e-01
  -3.59593655926e-01
  -3.51512915443e-01
  -3.43432173636e-01
  -3.35351430569e-01
  -3.27270686303e-01
  -3.19189940895e-01
  -3.11109194400e-01
  -3.03028446870e-01
  -2.94947698353e-01
  -2.86866948897e-01
  -2.78786198547e-01
  -2.70705447345e-01
  -2.62624695332e-01
  -2.54543942547e-01
  -2.46463189027e-01
  -2.38382434808e-01
  -2.30301679925e-01
  -2.22220924410e-01
  -2.14140168295e-01
  -2.06059411611e-01
  -1.97978654386e-01
  -1.89897896649e-01
  -1.81817138428e-01
  -1.73736379749e-01
  -1.65655620638e-01
  -1.57574861118e-01
  -1.49494101215e-01
  -1.41413340952e-01
  -1.33332580352e-01
  -1.25251819436e-01
  -1.17171058227e-01
  -1.09090296745e-01
  -1.01009535012e-01
  -9.29287730469e-02
  -8.48480108705e-02
